hour, t(sec), P1 (kW), Q1 (kvar), P2 (kW), Q2 (kvar), P3 (kW), Q3 (kvar), P4 (kW), Q4 (kvar)
0, 600.00000, 19.6952, 1.88284, 21.2998, 5.43852, 17.4182, 5.05029, 0, 0
0, 1200.00000, 19.5282, 1.85656, 21.1215, 5.3816, 17.2721, 4.99892, 0, 0
0, 1800.00000, 19.427, 1.8406, 21.0137, 5.34738, 17.1834, 4.96805, 0, 0
0, 2400.00000, 19.661, 1.87737, 21.2632, 5.42704, 17.388, 5.03981, 0, 0
0, 3000.00000, 19.4946, 1.85126, 21.0857, 5.3702, 17.2426, 4.98864, 0, 0
1, 0.00000, 19.5273, 1.85633, 21.1207, 5.38149, 17.2711, 4.99878, 0, 0
1, 600.00000, 19.561, 1.86164, 21.1565, 5.39289, 17.3006, 5.00907, 0, 0
1, 1200.00000, 19.2933, 1.8197, 20.8709, 5.30198, 17.0664, 4.92713, 0, 0
1, 1800.00000, 18.9561, 1.76727, 20.5112, 5.18864, 16.7707, 4.82476, 0, 0
1, 2400.00000, 18.8556, 1.75183, 20.4039, 5.15483, 16.6827, 4.79425, 0, 0
1, 3000.00000, 18.7882, 1.74149, 20.3321, 5.13229, 16.6236, 4.77389, 0, 0
2, 0.00000, 18.721, 1.73122, 20.2603, 5.10979, 16.5648, 4.75357, 0, 0
2, 600.00000, 18.4866, 1.69565, 20.0099, 5.03131, 16.3595, 4.68268, 0, 0
2, 1200.00000, 18.4188, 1.68537, 19.9375, 5.00889, 16.2999, 4.66238, 0, 0
2, 1800.00000, 18.4185, 1.68531, 19.9372, 5.00887, 16.2996, 4.66234, 0, 0
2, 2400.00000, 18.385, 1.68028, 19.9015, 4.9977, 16.2703, 4.65225, 0, 0
2, 3000.00000, 18.4852, 1.69536, 20.0085, 5.03122, 16.3579, 4.68252, 0, 0
3, 0.00000, 18.4522, 1.6904, 19.9732, 5.02006, 16.3291, 4.67247, 0, 0
3, 600.00000, 18.4186, 1.68534, 19.9373, 5.00888, 16.2997, 4.66236, 0, 0
3, 1200.00000, 18.3182, 1.67024, 19.83, 4.97538, 16.2117, 4.63209, 0, 0
3, 1800.00000, 17.9487, 1.6152, 19.435, 4.85301, 15.8878, 4.52134, 0, 0
3, 2400.00000, 17.6467, 1.57088, 19.1121, 4.75351, 15.6231, 4.43125, 0, 0
3, 3000.00000, 17.4796, 1.54659, 18.9332, 4.69845, 15.4768, 4.38142, 0, 0
4, 0.00000, 17.3787, 1.53202, 18.8253, 4.66551, 15.3883, 4.35154, 0, 0
4, 600.00000, 17.2113, 1.50798, 18.6461, 4.61072, 15.2417, 4.30189, 0, 0
4, 1200.00000, 17.1773, 1.50312, 18.6097, 4.5998, 15.2117, 4.29195, 0, 0
4, 1800.00000, 17.077, 1.48882, 18.5023, 4.56702, 15.1239, 4.26224, 0, 0
4, 2400.00000, 17.2102, 1.50783, 18.645, 4.61076, 15.2404, 4.30183, 0, 0
4, 3000.00000, 17.3109, 1.52226, 18.7528, 4.6436, 15.3287, 4.33162, 0, 0
5, 0.00000, 17.4449, 1.54157, 18.8962, 4.68748, 15.4461, 4.37139, 0, 0
5, 600.00000, 17.4788, 1.54648, 18.9325, 4.69846, 15.4759, 4.38137, 0, 0
5, 1200.00000, 17.7128, 1.58051, 19.1829, 4.77557, 15.6808, 4.45116, 0, 0
5, 1800.00000, 17.7471, 1.58554, 19.2195, 4.78661, 15.7111, 4.46123, 0, 0
5, 2400.00000, 17.7807, 1.59046, 19.2554, 4.79766, 15.7405, 4.47123, 0, 0
5, 3000.00000, 17.6137, 1.56607, 19.0768, 4.74248, 15.5944, 4.42131, 0, 0
6, 0.00000, 16.5448, 1.47218, 18.0074, 4.62088, 14.5493, 4.31318, 0, 0
6, 600.00000, 16.1622, 1.46728, 17.6048, 4.58689, 14.1818, 4.27644, 0, 0
6, 1200.00000, 16.0621, 1.45366, 17.4976, 4.55482, 14.0942, 4.2474, 0, 0
6, 1800.00000, 16.0448, 1.45966, 17.4803, 4.56489, 14.0734, 4.25545, 0, 0
6, 2400.00000, 16.0024, 1.47471, 17.438, 4.58993, 14.0223, 4.27557, 0, 0
6, 3000.00000, 15.926, 1.50187, 17.3618, 4.63504, 13.9305, 4.31186, 0, 0
7, 0.00000, 15.7668, 1.50966, 17.1956, 4.63834, 13.7717, 4.31142, 0, 0
7, 600.00000, 15.5867, 1.51703, 17.0074, 4.63919, 13.5932, 4.30848, 0, 0
7, 1200.00000, 15.2611, 1.52028, 16.6654, 4.62139, 13.2776, 4.28697, 0, 0
7, 1800.00000, 15.1183, 1.53956, 16.5182, 4.64638, 13.1277, 4.30529, 0, 0
7, 2400.00000, 14.8314, 1.5384, 16.216, 4.62223, 12.853, 4.27944, 0, 0
7, 3000.00000, 13.972, 1.52226, 15.3084, 4.5235, 12.041, 4.18023, 0, 0
8, 0.00000, 13.6787, 1.54384, 15.0023, 4.53804, 11.7474, 4.18719, 0, 0
8, 600.00000, 12.2748, 1.53787, 13.5192, 4.39972, 10.4185, 4.04648, 0, 0
8, 1200.00000, 9.64823, 1.5653, 10.7405, 4.17495, 7.93432, 3.81604, 0, 0
8, 1800.00000, 9.13553, 1.57622, 10.1974, 4.13612, 7.44954, 3.77579, 0, 0
8, 2400.00000, 6.35783, 1.65204, 7.24984, 3.9242, 4.83609, 3.56062, 0, 0
8, 3000.00000, 5.37754, 1.69724, 6.20958, 3.87088, 3.91113, 3.50463, 0, 0
9, 0.00000, 2.03762, 1.89302, 2.65769, 3.71896, 0.766341, 3.34299, 0, 0
9, 600.00000, 1.29647, 1.95942, 1.87065, 3.71557, 0.0626848, 3.33475, 0, 0
9, 1200.00000, 0.159242, 2.05936, 0.660255, 3.70111, -1.01205, 3.31412, 0, 0
9, 1800.00000, -0.816127, 2.14288, -0.380639, 3.67872, -1.92846, 3.28795, 0, 0
9, 2400.00000, -1.12694, 2.19358, -0.707874, 3.71269, -2.23299, 3.31606, 0, 0
9, 3000.00000, -1.80754, 2.2881, -1.42867, 3.75362, -2.88728, 3.34897, 0, 0
10, 0.00000, -2.15297, 2.33489, -1.7951, 3.77164, -3.2183, 3.36319, 0, 0
10, 600.00000, -3.23399, 2.47034, -2.94578, 3.80502, -4.24575, 3.38728, 0, 0
10, 1200.00000, -3.97972, 2.55997, -3.74194, 3.81735, -4.94975, 3.39458, 0, 0
10, 1800.00000, -4.08499, 2.61037, -3.84666, 3.88314, -5.06807, 3.45315, 0, 0
10, 2400.00000, -4.21188, 2.63324, -3.98062, 3.89763, -5.19124, 3.46571, 0, 0
10, 3000.00000, -4.18635, 2.62712, -3.95401, 3.89152, -5.16518, 3.46053, 0, 0
11, 0.00000, -4.49781, 2.63758, -4.29264, 3.84989, -5.44512, 3.42141, 0, 0
11, 600.00000, -4.79562, 2.63829, -4.61845, 3.79459, -5.70842, 3.36988, 0, 0
11, 1200.00000, -4.91845, 2.6274, -4.75551, 3.75178, -5.81072, 3.3307, 0, 0
11, 1800.00000, -5.01461, 2.5972, -4.86736, 3.68181, -5.88029, 3.26703, 0, 0
11, 2400.00000, -5.16734, 2.57367, -5.03995, 3.61242, -6.00323, 3.20336, 0, 0
11, 3000.00000, -5.45854, 2.57131, -5.36018, 3.55196, -6.25863, 3.14681, 0, 0
12, 0.00000, -5.27036, 2.54969, -5.15861, 3.55057, -6.08127, 3.14691, 0, 0
12, 600.00000, -5.3212, 2.56257, -5.21151, 3.56341, -6.13311, 3.15799, 0, 0
12, 1200.00000, -4.94984, 2.50866, -4.81551, 3.54401, -5.77932, 3.14267, 0, 0
12, 1800.00000, -4.93097, 2.50629, -4.79532, 3.54368, -5.76155, 3.14246, 0, 0
12, 2400.00000, -4.69347, 2.49346, -4.53775, 3.5671, -5.54541, 3.16514, 0, 0
12, 3000.00000, -4.66237, 2.49252, -4.50369, 3.57219, -5.51805, 3.16977, 0, 0
13, 0.00000, -4.73788, 2.50122, -4.58453, 3.57281, -5.58922, 3.16982, 0, 0
13, 600.00000, -4.6435, 2.49055, -4.48346, 3.57223, -5.50024, 3.16999, 0, 0
13, 1200.00000, -4.42288, 2.52176, -4.23525, 3.66745, -5.32126, 3.25709, 0, 0
13, 1800.00000, -3.88107, 2.51428, -3.6436, 3.75814, -4.83955, 3.34186, 0, 0
13, 2400.00000, -3.51999, 2.51459, -3.24895, 3.82655, -4.52066, 3.40529, 0, 0
13, 3000.00000, -2.83372, 2.51036, -2.5011, 3.94646, -3.91112, 3.51646, 0, 0
14, 0.00000, -2.17427, 2.52709, -1.77984, 4.09487, -3.3348, 3.65256, 0, 0
14, 600.00000, -0.525234, 2.44324, -0.0066021, 4.24258, -1.82419, 3.79206, 0, 0
14, 1200.00000, 0.220259, 2.42825, 0.797006, 4.34399, -1.15045, 3.88559, 0, 0
14, 1800.00000, 1.36585, 2.44823, 2.03661, 4.56735, -0.133991, 4.08869, 0, 0
14, 2400.00000, 2.58754, 2.37483, 3.33792, 4.63626, 1.00427, 4.15539, 0, 0
14, 3000.00000, 3.03925, 2.35219, 3.81904, 4.66643, 1.42496, 4.18462, 0, 0
15, 0.00000, 5.81323, 2.21527, 6.76449, 4.83584, 4.01938, 4.34937, 0, 0
15, 600.00000, 6.87345, 2.19176, 7.89078, 4.93854, 5.00334, 4.44619, 0, 0
15, 1200.00000, 7.3184, 2.19053, 8.36423, 4.99403, 5.41341, 4.498, 0, 0
15, 1800.00000, 8.47298, 2.17189, 9.58813, 5.10792, 6.48788, 4.60566, 0, 0
15, 2400.00000, 9.92564, 2.12675, 11.1221, 5.2017, 7.86088, 4.70037, 0, 0
15, 3000.00000, 14.8293, 2.07217, 16.2899, 5.5918, 12.5115, 5.09687, 0, 0
16, 0.00000, 16.3362, 2.10725, 17.8768, 5.77218, 13.9326, 5.27395, 0, 0
16, 600.00000, 18.8504, 2.2062, 20.5221, 6.11176, 16.3039, 5.60677, 0, 0
16, 1200.00000, 19.3234, 2.22898, 21.0191, 6.17813, 16.7512, 5.67205, 0, 0
16, 1800.00000, 21.2327, 2.37412, 23.0283, 6.52872, 18.5325, 6.0065, 0, 0
16, 2400.00000, 21.6423, 2.43327, 23.4614, 6.65214, 18.8982, 6.1181, 0, 0
16, 3000.00000, 22.8533, 2.59952, 24.7395, 6.99564, 19.9892, 6.4311, 0, 0
17, 0.00000, 23.8845, 2.70941, 25.8221, 7.22853, 20.9397, 6.64702, 0, 0
17, 600.00000, 24.3909, 2.83302, 26.3545, 7.46763, 21.359, 6.85088, 0, 0
17, 1200.00000, 25.0583, 2.91544, 27.0555, 7.63226, 21.972, 7.00354, 0, 0
17, 1800.00000, 26.1313, 3.04759, 28.191, 7.9257, 22.9366, 7.27045, 0, 0
17, 2400.00000, 27.0631, 3.22748, 29.1784, 8.29565, 23.7316, 7.59348, 0, 0
17, 3000.00000, 20.6203, 2.43601, 22.8928, 7.86381, 17.0559, 7.11796, 0, 0
18, 0.00000, 22.4747, 2.73923, 24.7384, 8.34188, 18.7545, 7.50101, 0, 0
18, 600.00000, 24.4139, 3.12653, 26.7011, 9.02862, 20.4461, 8.0583, 0, 0
18, 1200.00000, 24.8333, 3.21572, 27.1207, 9.17974, 20.812, 8.17864, 0, 0
18, 1800.00000, 25.3168, 3.32017, 27.6043, 9.35464, 21.2345, 8.31844, 0, 0
18, 2400.00000, 24.9963, 3.25078, 27.2829, 9.23838, 20.9542, 8.22477, 0, 0
18, 3000.00000, 24.7381, 3.19537, 27.0246, 9.14525, 20.7286, 8.15051, 0, 0
19, 0.00000, 24.929, 3.23614, 27.217, 9.21453, 20.8956, 8.20682, 0, 0
19, 600.00000, 24.6095, 3.168, 26.8956, 9.09899, 20.6162, 8.11326, 0, 0
19, 1200.00000, 24.2532, 3.09274, 26.5391, 8.97157, 20.3049, 8.01175, 0, 0
19, 1800.00000, 23.1893, 2.87411, 25.4691, 8.59385, 19.3758, 7.70838, 0, 0
19, 2400.00000, 22.4751, 2.73878, 24.7387, 8.34266, 18.7538, 7.50111, 0, 0
19, 3000.00000, 22.02, 2.65559, 24.2706, 8.18389, 18.3576, 7.36883, 0, 0
20, 0.00000, 21.826, 2.62059, 24.0705, 8.11637, 18.1888, 7.31235, 0, 0
20, 600.00000, 21.7603, 2.6088, 24.0031, 8.09369, 18.1316, 7.29359, 0, 0
20, 1200.00000, 21.6953, 2.59714, 23.9361, 8.0712, 18.075, 7.27482, 0, 0
20, 1800.00000, 21.6303, 2.58552, 23.8692, 8.04874, 18.0184, 7.25607, 0, 0
20, 2400.00000, 21.5976, 2.57969, 23.8355, 8.03749, 17.99, 7.24669, 0, 0
20, 3000.00000, 21.3711, 2.5395, 23.6018, 7.95926, 17.7928, 7.18119, 0, 0
21, 0.00000, 21.1114, 2.49385, 23.3338, 7.86999, 17.5667, 7.10658, 0, 0
21, 600.00000, 20.2332, 2.34298, 22.4263, 7.57129, 16.8019, 6.85641, 0, 0
21, 1200.00000, 19.4214, 2.20837, 21.5854, 7.29836, 16.0953, 6.62744, 0, 0
21, 1800.00000, 18.7722, 2.10411, 20.9114, 7.08252, 15.5304, 6.44594, 0, 0
21, 2400.00000, 17.4075, 1.89746, 19.4856, 6.63603, 14.3428, 6.06642, 0, 0
21, 3000.00000, 16.9844, 1.83725, 19.0408, 6.49944, 13.975, 5.94924, 0, 0
22, 0.00000, 16.6266, 1.78724, 18.6641, 6.38475, 13.6638, 5.85049, 0, 0
22, 600.00000, 24.9515, 2.80296, 26.8744, 7.30848, 22.0111, 6.72098, 0, 0
22, 1200.00000, 24.8527, 2.78399, 26.7699, 7.27149, 21.925, 6.68809, 0, 0
22, 1800.00000, 24.5541, 2.72681, 26.4544, 7.16036, 21.6647, 6.58935, 0, 0
22, 2400.00000, 24.3199, 2.6823, 26.2078, 7.0737, 21.4608, 6.51291, 0, 0
22, 3000.00000, 24.352, 2.68829, 26.2417, 7.08581, 21.4885, 6.52353, 0, 0
23, 0.00000, 24.2518, 2.66957, 26.1362, 7.04856, 21.4016, 6.49101, 0, 0
23, 600.00000, 23.8797, 2.6019, 25.7431, 6.91125, 21.0794, 6.37027, 0, 0
23, 1200.00000, 23.2041, 2.47974, 25.0281, 6.66527, 20.4913, 6.15209, 0, 0
23, 1800.00000, 22.6631, 2.38256, 24.4547, 6.47168, 20.0176, 5.97868, 0, 0
23, 2400.00000, 21.8527, 2.24054, 23.5948, 6.18465, 19.308, 5.72126, 0, 0
23, 3000.00000, 20.7063, 2.04681, 22.3762, 5.7848, 18.304, 5.362, 0, 0
24, 0.00000, 20.0325, 1.93686, 21.6589, 5.55331, 17.7138, 5.15363, 0, 0
24, 600.00000, 19.6958, 1.88302, 21.3002, 5.4386, 17.4188, 5.05027, 0, 0
24, 1200.00000, 19.5284, 1.8564, 21.1218, 5.38137, 17.2723, 4.9988, 0, 0
24, 1800.00000, 19.4271, 1.8405, 21.0138, 5.34724, 17.1835, 4.96797, 0, 0
24, 2400.00000, 19.6608, 1.8776, 21.2629, 5.42735, 17.3877, 5.03998, 0, 0
24, 3000.00000, 19.4947, 1.85109, 21.0859, 5.36997, 17.2429, 4.98852, 0, 0
25, 0.00000, 19.5273, 1.85636, 21.1206, 5.38153, 17.2711, 4.99881, 0, 0
25, 600.00000, 19.5609, 1.86167, 21.1565, 5.39294, 17.3005, 5.00909, 0, 0
25, 1200.00000, 19.2922, 1.81942, 20.8699, 5.30183, 17.0652, 4.92693, 0, 0
25, 1800.00000, 18.9561, 1.76725, 20.5112, 5.1886, 16.7707, 4.82473, 0, 0
25, 2400.00000, 18.8556, 1.75172, 20.4041, 5.15468, 16.6828, 4.79418, 0, 0
25, 3000.00000, 18.7883, 1.74142, 20.3322, 5.13219, 16.6237, 4.77384, 0, 0
26, 0.00000, 18.7211, 1.73115, 20.2604, 5.10969, 16.5648, 4.75351, 0, 0
26, 600.00000, 18.4868, 1.69539, 20.0102, 5.03096, 16.3598, 4.68249, 0, 0
26, 1200.00000, 18.4188, 1.68529, 19.9376, 5.00879, 16.3, 4.66232, 0, 0
26, 1800.00000, 18.4185, 1.68531, 19.9372, 5.00887, 16.2996, 4.66234, 0, 0
26, 2400.00000, 18.3851, 1.68024, 19.9015, 4.99765, 16.2703, 4.65223, 0, 0
26, 3000.00000, 18.4852, 1.69547, 20.0084, 5.03137, 16.3578, 4.68261, 0, 0
27, 0.00000, 18.4522, 1.69036, 19.9733, 5.02002, 16.3292, 4.67245, 0, 0
27, 600.00000, 18.4186, 1.6853, 19.9374, 5.00883, 16.2998, 4.66233, 0, 0
27, 1200.00000, 18.3182, 1.67013, 19.8301, 4.97523, 16.2119, 4.632, 0, 0
27, 1800.00000, 17.9487, 1.61519, 19.435, 4.85297, 15.8878, 4.52131, 0, 0
27, 2400.00000, 17.6467, 1.57086, 19.1121, 4.75347, 15.6232, 4.43122, 0, 0
27, 3000.00000, 17.4797, 1.54639, 18.9334, 4.69818, 15.477, 4.38127, 0, 0
28, 0.00000, 17.3788, 1.5319, 18.8254, 4.66534, 15.3885, 4.35145, 0, 0
28, 600.00000, 17.2115, 1.50777, 18.6463, 4.61044, 15.2419, 4.30174, 0, 0
28, 1200.00000, 17.1774, 1.50308, 18.6098, 4.59974, 15.2118, 4.29192, 0, 0
28, 1800.00000, 17.0771, 1.48869, 18.5024, 4.56685, 15.124, 4.26215, 0, 0
28, 2400.00000, 17.2101, 1.508, 18.6448, 4.61098, 15.2402, 4.30196, 0, 0
28, 3000.00000, 17.3108, 1.52239, 18.7527, 4.64376, 15.3286, 4.33171, 0, 0
29, 0.00000, 17.4448, 1.54173, 18.896, 4.6877, 15.4459, 4.37151, 0, 0
29, 600.00000, 17.4788, 1.54652, 18.9324, 4.69852, 15.4759, 4.3814, 0, 0
29, 1200.00000, 17.7126, 1.58078, 19.1826, 4.77594, 15.6805, 4.45137, 0, 0
29, 1800.00000, 17.7471, 1.58558, 19.2195, 4.78667, 15.7111, 4.46126, 0, 0
29, 2400.00000, 17.7806, 1.5905, 19.2554, 4.79771, 15.7405, 4.47126, 0, 0
29, 3000.00000, 17.6138, 1.56587, 19.077, 4.74221, 15.5946, 4.42116, 0, 0
30, 0.00000, 16.5448, 1.47212, 18.0074, 4.62079, 14.5493, 4.31308, 0, 0
30, 600.00000, 16.1622, 1.46726, 17.6048, 4.58686, 14.1818, 4.27639, 0, 0
30, 1200.00000, 16.0622, 1.45353, 17.4977, 4.55464, 14.0943, 4.24729, 0, 0
30, 1800.00000, 16.0448, 1.45965, 17.4803, 4.56487, 14.0734, 4.25541, 0, 0
30, 2400.00000, 16.0024, 1.47468, 17.4379, 4.58989, 14.0223, 4.27547, 0, 0
30, 3000.00000, 15.9261, 1.50182, 17.3617, 4.63496, 13.9305, 4.31168, 0, 0
31, 0.00000, 15.7669, 1.50949, 17.1957, 4.63811, 13.7718, 4.31117, 0, 0
31, 600.00000, 15.5867, 1.51683, 17.0074, 4.63892, 13.5933, 4.30821, 0, 0
31, 1200.00000, 15.2603, 1.52025, 16.6648, 4.62151, 13.2768, 4.28719, 0, 0
31, 1800.00000, 15.1184, 1.53941, 16.5181, 4.64617, 13.1277, 4.30503, 0, 0
31, 2400.00000, 14.8315, 1.53803, 16.2161, 4.62174, 12.8532, 4.27901, 0, 0
31, 3000.00000, 13.9719, 1.5222, 15.3083, 4.52341, 12.041, 4.18013, 0, 0
32, 0.00000, 13.6788, 1.54345, 15.0022, 4.53754, 11.7475, 4.18667, 0, 0
32, 600.00000, 12.2747, 1.53777, 13.519, 4.39958, 10.4184, 4.0463, 0, 0
32, 1200.00000, 9.64793, 1.56507, 10.74, 4.17467, 7.934, 3.81566, 0, 0
32, 1800.00000, 9.1355, 1.57528, 10.1974, 4.13495, 7.44971, 3.77475, 0, 0
32, 2400.00000, 6.35745, 1.65174, 7.24931, 3.92384, 4.83568, 3.56016, 0, 0
32, 3000.00000, 5.3774, 1.69713, 6.20939, 3.87075, 3.91098, 3.50447, 0, 0
33, 0.00000, 2.03778, 1.89342, 2.65796, 3.71925, 0.766657, 3.34342, 0, 0
33, 600.00000, 1.29637, 1.95931, 1.8705, 3.71546, 0.062565, 3.3346, 0, 0
33, 1200.00000, 0.159091, 2.05918, 0.66004, 3.70092, -1.01223, 3.31388, 0, 0
33, 1800.00000, -0.816253, 2.14272, -0.380818, 3.67855, -1.9286, 3.28773, 0, 0
33, 2400.00000, 2.90604, 2.13387, 3.36841, 3.72816, 1.75653, 3.33143, 0, 0
33, 3000.00000, 2.20307, 2.20186, 2.62765, 3.74522, 1.07877, 3.34124, 0, 0
34, 0.00000, 6.34021, 2.35224, 6.83202, 3.99943, 5.15961, 3.60174, 0, 0
34, 600.00000, 5.18287, 2.39652, 5.61955, 3.95758, 4.04929, 3.55522, 0, 0
34, 1200.00000, 4.38758, 2.42621, 4.78211, 3.91889, 3.29214, 3.51422, 0, 0
34, 1800.00000, 4.26814, 2.46397, 4.66549, 3.97551, 3.15778, 3.56386, 0, 0
34, 2400.00000, 4.13154, 2.47524, 4.52409, 3.98122, 3.02359, 3.56819, 0, 0
34, 3000.00000, 4.1587, 2.47022, 4.55228, 3.97668, 3.05086, 3.56431, 0, 0
35, 0.00000, 3.83258, 2.46006, 4.20125, 3.91597, 2.75606, 3.50729, 0, 0
35, 600.00000, 3.52224, 2.44315, 3.86476, 3.84417, 2.48018, 3.44029, 0, 0
35, 1200.00000, 3.39735, 2.42511, 3.72617, 3.79419, 2.3761, 3.39441, 0, 0
35, 1800.00000, 3.30317, 2.39238, 3.61587, 3.72046, 2.30937, 3.32722, 0, 0
35, 2400.00000, 3.14922, 2.36284, 3.44188, 3.64377, 2.18624, 3.25675, 0, 0
35, 3000.00000, 2.84611, 2.34411, 3.1106, 3.5668, 1.91947, 3.18451, 0, 0
36, 0.00000, 3.04539, 2.33452, 3.32125, 3.57586, 2.10829, 3.19409, 0, 0
36, 600.00000, 2.99101, 2.34428, 3.26536, 3.58575, 2.05304, 3.20261, 0, 0
36, 1200.00000, 3.38755, 2.31949, 3.68249, 3.59154, 2.4334, 3.21093, 0, 0
36, 1800.00000, 3.40768, 2.31889, 3.70357, 3.5923, 2.45282, 3.21184, 0, 0
36, 2400.00000, 3.65639, 2.32153, 3.97027, 3.62972, 2.68041, 3.24745, 0, 0
36, 3000.00000, 3.68987, 2.32372, 4.00658, 3.63751, 2.71044, 3.25489, 0, 0
37, 0.00000, 3.61001, 2.32719, 3.9222, 3.63345, 2.63485, 3.25069, 0, 0
37, 600.00000, 3.7096, 2.32275, 4.02759, 3.63855, 2.72907, 3.25604, 0, 0
37, 1200.00000, 3.93255, 2.36413, 4.27717, 3.74422, 2.90967, 3.35262, 0, 0
37, 1800.00000, 4.49923, 2.39194, 4.89095, 3.86886, 3.41605, 3.46964, 0, 0
37, 2400.00000, 4.87564, 2.4154, 5.29882, 3.95903, 3.75041, 3.5537, 0, 0
37, 3000.00000, 5.59243, 2.45622, 6.07266, 4.12099, 4.39082, 3.70449, 0, 0
38, 0.00000, 6.27787, 2.51439, 6.81627, 4.3088, 4.99306, 3.87786, 0, 0
38, 600.00000, 8.02217, 2.55474, 8.66982, 4.56612, 6.60408, 4.12131, 0, 0
38, 1200.00000, 8.80723, 2.59489, 9.50679, 4.71657, 7.31958, 4.26157, 0, 0
38, 1800.00000, 10.0071, 2.69523, 10.7924, 5.01344, 8.39212, 4.53443, 0, 0
38, 2400.00000, 11.282, 2.74271, 12.1189, 5.15451, 9.61175, 4.67338, 0, 0
38, 3000.00000, 3.03911, 2.35091, 3.81865, 4.66528, 1.42458, 4.1832, 0, 0
39, 0.00000, 5.81311, 2.21506, 6.76429, 4.83578, 4.01909, 4.34916, 0, 0
39, 600.00000, 6.87328, 2.19208, 7.89074, 4.93897, 5.00313, 4.44667, 0, 0
39, 1200.00000, 7.31824, 2.18985, 8.36387, 4.99342, 5.41309, 4.49718, 0, 0
39, 1800.00000, 8.47303, 2.17248, 9.5883, 5.10861, 6.4879, 4.6064, 0, 0
39, 2400.00000, 9.92556, 2.12667, 11.122, 5.20169, 7.86072, 4.70029, 0, 0
39, 3000.00000, 14.8296, 2.07184, 16.2899, 5.5916, 12.5115, 5.09638, 0, 0
40, 0.00000, 16.3364, 2.10713, 17.8769, 5.77209, 13.9327, 5.27376, 0, 0
40, 600.00000, 18.851, 2.20594, 20.5226, 6.1115, 16.3045, 5.60633, 0, 0
40, 1200.00000, 19.3235, 2.22893, 21.0191, 6.17808, 16.7513, 5.67196, 0, 0
40, 1800.00000, 21.2335, 2.37388, 23.0289, 6.52844, 18.5332, 6.00605, 0, 0
40, 2400.00000, 21.6424, 2.43322, 23.4615, 6.65208, 18.8983, 6.11801, 0, 0
40, 3000.00000, 22.8539, 2.59936, 24.74, 6.99544, 19.9898, 6.4308, 0, 0
41, 0.00000, 23.885, 2.70919, 25.8225, 7.22842, 20.94, 6.64674, 0, 0
41, 600.00000, 24.3911, 2.83293, 26.3547, 7.46758, 21.3591, 6.85075, 0, 0
41, 1200.00000, 25.0585, 2.91526, 27.0557, 7.63211, 21.9722, 7.00333, 0, 0
41, 1800.00000, 26.1314, 3.04676, 28.191, 7.92555, 22.9361, 7.26983, 0, 0
41, 2400.00000, 27.0633, 3.22666, 29.1784, 8.29542, 23.7312, 7.59279, 0, 0
41, 3000.00000, 20.6209, 2.43638, 22.8921, 7.86416, 17.0559, 7.11723, 0, 0
42, 0.00000, 22.4747, 2.73905, 24.7385, 8.34203, 18.7543, 7.50105, 0, 0
42, 600.00000, 24.4139, 3.12652, 26.7011, 9.02858, 20.4462, 8.05835, 0, 0
42, 1200.00000, 24.8333, 3.21574, 27.1207, 9.17973, 20.812, 8.17864, 0, 0
42, 1800.00000, 25.3168, 3.32017, 27.6043, 9.35464, 21.2345, 8.31844, 0, 0
42, 2400.00000, 24.9963, 3.25078, 27.2829, 9.23838, 20.9542, 8.22477, 0, 0
42, 3000.00000, 24.7381, 3.19537, 27.0246, 9.14525, 20.7286, 8.15051, 0, 0
43, 0.00000, 24.929, 3.23614, 27.217, 9.21453, 20.8956, 8.20682, 0, 0
43, 600.00000, 24.6095, 3.168, 26.8956, 9.09899, 20.6162, 8.11326, 0, 0
43, 1200.00000, 24.2532, 3.09274, 26.5391, 8.97157, 20.3049, 8.01175, 0, 0
43, 1800.00000, 23.1893, 2.87411, 25.4691, 8.59385, 19.3758, 7.70838, 0, 0
43, 2400.00000, 22.4751, 2.73878, 24.7387, 8.34266, 18.7538, 7.50111, 0, 0
43, 3000.00000, 22.02, 2.65559, 24.2706, 8.18389, 18.3576, 7.36883, 0, 0
44, 0.00000, 21.826, 2.62059, 24.0705, 8.11637, 18.1888, 7.31235, 0, 0
44, 600.00000, 21.7603, 2.6088, 24.0031, 8.09369, 18.1316, 7.29359, 0, 0
44, 1200.00000, 21.6953, 2.59714, 23.9361, 8.0712, 18.075, 7.27482, 0, 0
44, 1800.00000, 21.6303, 2.58552, 23.8692, 8.04874, 18.0184, 7.25607, 0, 0
44, 2400.00000, 21.5976, 2.57969, 23.8355, 8.03749, 17.99, 7.24669, 0, 0
44, 3000.00000, 21.3711, 2.5395, 23.6018, 7.95926, 17.7928, 7.18119, 0, 0
